!CSV A.01.01
!Keysight Technologies,N5224B,MY61255146,A.15.50.09
!Date: Saturday, September 21, 2024 22:04:51
!Source: Standard

BEGIN CH1_DATA
Freq(Hz),S11(DB),S11(DEG)
400000000,-12.363147,-11.187958
405000000,-13.641974,-17.046907
410000000,-15.13668,-23.462795
415000000,-16.9716,-29.081385
420000000,-19.19087,-34.421883
425000000,-21.774557,-38.081924
430000000,-24.860022,-42.578484
435000000,-29.478804,-47.28096
440000000,-39.231552,-46.667992
445000000,-39.905167,95.977303
450000000,-32.150253,93.811752
455000000,-29.997381,90.55896
460000000,-29.353394,91.660294
465000000,-28.996778,99.607918
470000000,-27.921782,108.07084
475000000,-26.443142,113.27651
480000000,-25.183435,114.6469
485000000,-24.199337,114.00848
490000000,-23.659538,113.27681
495000000,-23.104609,113.93536
500000000,-22.340986,113.29751
505000000,-21.831684,110.03938
510000000,-21.745665,106.21729
515000000,-22.121693,104.25461
520000000,-22.359119,106.59717
525000000,-22.138041,109.1353
530000000,-21.512636,110.46443
535000000,-20.800709,107.58818
540000000,-20.533619,103.65054
545000000,-20.364292,99.609825
550000000,-20.423346,95.46904
555000000,-20.507067,92.331001
560000000,-20.475981,88.779114
565000000,-20.53616,83.540527
570000000,-20.810396,78.029625
575000000,-21.242523,72.422371
580000000,-21.824026,67.159904
585000000,-22.456879,62.444897
590000000,-22.909973,57.453167
595000000,-23.311415,49.693405
600000000,-23.921785,39.740955
605000000,-24.628876,27.428242
610000000,-25.464437,12.399479
615000000,-26.21105,-4.2351794
620000000,-26.411318,-22.499651
625000000,-26.107899,-41.853134
630000000,-25.428881,-59.191505
635000000,-24.415161,-73.25679
640000000,-23.264561,-84.84877
645000000,-22.128946,-94.550446
650000000,-21.107811,-102.61571
655000000,-20.126116,-108.94403
660000000,-19.15465,-114.68875
665000000,-18.230431,-120.08156
670000000,-17.370701,-125.48754
675000000,-16.610506,-130.91684
680000000,-15.978909,-136.21756
685000000,-15.439086,-140.98555
690000000,-14.933064,-145.39958
695000000,-14.455983,-149.61078
700000000,-14.006739,-153.79787
705000000,-13.602691,-158.035
710000000,-13.259336,-162.10403
715000000,-12.951438,-166.11501
720000000,-12.70235,-169.95052
725000000,-12.479646,-173.60075
730000000,-12.284745,-177.01448
735000000,-12.081394,179.6662
740000000,-11.899282,176.12288
745000000,-11.780173,172.57437
750000000,-11.719238,169.16574
755000000,-11.694765,166.17488
760000000,-11.648556,163.48044
765000000,-11.568045,160.78261
770000000,-11.472883,157.79845
775000000,-11.41028,154.48563
780000000,-11.397766,151.03893
785000000,-11.441698,147.60857
790000000,-11.51895,144.31349
795000000,-11.618731,141.07231
800000000,-11.744137,137.91571
805000000,-11.879458,134.811
810000000,-12.039295,131.6796
815000000,-12.228409,128.60255
820000000,-12.428206,125.61054
825000000,-12.635871,122.59937
830000000,-12.842177,119.46602
835000000,-13.061964,115.95476
840000000,-13.362283,111.94917
845000000,-13.7697,107.8166
850000000,-14.284,103.65598
855000000,-14.883588,99.763832
860000000,-15.542225,95.827881
865000000,-16.25024,91.656441
870000000,-17.060196,86.772812
875000000,-18.061937,81.011116
880000000,-19.331875,74.300606
885000000,-20.998587,66.501167
890000000,-23.12352,57.346672
895000000,-25.897024,44.389278
900000000,-29.48946,21.885817
905000000,-32.086075,-22.591576
910000000,-29.586826,-70.313614
915000000,-25.691536,-95.511925
920000000,-22.677422,-110.33733
925000000,-20.368803,-121.42335
930000000,-18.635496,-130.62045
935000000,-17.293352,-138.80309
940000000,-16.32395,-146.088
945000000,-15.634096,-152.28589
950000000,-15.108021,-156.81808
955000000,-14.567698,-160.27539
960000000,-13.983647,-163.48871
965000000,-13.386783,-166.94312
970000000,-12.818896,-170.99934
975000000,-12.363203,-175.64066
980000000,-12.070301,179.43607
985000000,-11.952427,174.80415
990000000,-11.975363,170.75793
995000000,-12.093946,167.62393
1000000000,-12.213375,165.56155
1005000000,-12.255129,164.11275
1010000000,-12.224094,162.77951
1015000000,-12.152708,161.35109
1020000000,-12.0575,159.78574
1025000000,-11.935797,158.14471
1030000000,-11.79914,156.07805
1035000000,-11.694237,153.65637
1040000000,-11.640727,151.02452
1045000000,-11.659354,148.45432
1050000000,-11.732933,146.17752
1055000000,-11.815415,144.32114
1060000000,-11.847465,142.83012
1065000000,-11.818299,141.17152
1070000000,-11.796902,139.12424
1075000000,-11.806508,136.88942
1080000000,-11.849116,134.60576
1085000000,-11.929031,132.20901
1090000000,-12.07089,129.8735
1095000000,-12.243802,127.82005
1100000000,-12.410463,125.89466
1105000000,-12.586874,123.88711
1110000000,-12.797184,121.79391
1115000000,-13.057339,119.87041
1120000000,-13.306843,118.11697
1125000000,-13.56594,116.18273
1130000000,-13.861034,114.23349
1135000000,-14.176327,112.20135
1140000000,-14.538363,110.0643
1145000000,-14.93563,107.90672
1150000000,-15.414661,105.59487
1155000000,-15.993063,103.68821
1160000000,-16.594902,102.01433
1165000000,-17.297466,100.46706
1170000000,-18.095772,99.785454
1175000000,-18.921635,99.91156
1180000000,-19.717041,100.8548
1185000000,-20.450705,101.6976
1190000000,-21.370754,102.1413
1195000000,-22.548212,104.11027
1200000000,-23.872183,108.00969
1205000000,-25.353813,115.33146
1210000000,-26.627934,127.74535
1215000000,-27.207312,144.65468
1220000000,-26.511183,162.14227
1225000000,-25.036955,173.9066
1230000000,-23.499664,-178.64169
1235000000,-21.930239,-174.40857
1240000000,-20.561216,-173.01173
1245000000,-19.404224,-172.97803
1250000000,-18.441231,-173.68791
1255000000,-17.612471,-174.54295
1260000000,-16.812799,-175.57408
1265000000,-16.045589,-177.26802
1270000000,-15.34366,-179.53503
1275000000,-14.753775,177.60509
1280000000,-14.2872,174.75751
1285000000,-13.836023,172.10594
1290000000,-13.4458,169.17247
1295000000,-13.088604,166.31042
1300000000,-12.756667,163.22026
1305000000,-12.481382,159.94844
1310000000,-12.284144,156.72673
1315000000,-12.127472,153.62323
1320000000,-11.994369,150.7706
1325000000,-11.860923,147.98216
1330000000,-11.731381,145.00629
1335000000,-11.643632,141.75772
1340000000,-11.605637,138.41891
1345000000,-11.644862,135.04933
1350000000,-11.735005,131.98964
1355000000,-11.826753,128.9393
1360000000,-11.94923,125.94823
1365000000,-12.098679,122.8912
1370000000,-12.292263,119.82432
1375000000,-12.523286,116.90649
1380000000,-12.767354,114.03215
1385000000,-13.038606,111.18917
1390000000,-13.328375,108.28309
1395000000,-13.668352,105.31152
1400000000,-14.084726,102.51092
1405000000,-14.517658,100.01176
1410000000,-14.992823,97.662376
1415000000,-15.499086,95.853157
1420000000,-16.003914,93.865112
1425000000,-16.567329,92.048103
1430000000,-17.192459,90.567764
1435000000,-17.862936,89.489487
1440000000,-18.569414,88.835899
1445000000,-19.305323,88.568047
1450000000,-20.091045,88.595879
1455000000,-20.959579,89.04245
1460000000,-21.89411,90.205772
1465000000,-22.880133,92.369339
1470000000,-23.860136,95.439613
1475000000,-24.819542,98.89415
1480000000,-25.943396,102.93518
1485000000,-27.199633,109.22276
1490000000,-28.511398,118.94093
1495000000,-29.302826,133.47099
1500000000,-29.142349,148.79483
1505000000,-28.226656,161.78404
1510000000,-26.988436,170.54712
1515000000,-25.699038,176.46225
1520000000,-24.417377,179.64914
1525000000,-23.25473,-178.98161
1530000000,-22.244835,-178.92184
1535000000,-21.380289,-179.71909
1540000000,-20.661882,179.30589
1545000000,-20.003426,178.33182
1550000000,-19.391857,177.29308
1555000000,-18.772957,176.24225
1560000000,-18.150476,174.58022
1565000000,-17.611485,172.37575
1570000000,-17.160934,169.95322
1575000000,-16.827534,167.39029
1580000000,-16.57456,165.3212
1585000000,-16.329956,163.41449
1590000000,-16.113598,161.66824
1595000000,-15.88501,159.9426
1600000000,-15.657258,157.92017
1605000000,-15.47443,155.66107
1610000000,-15.32683,153.16629
1615000000,-15.248791,150.45772
1620000000,-15.235337,147.82022
1625000000,-15.265894,145.24364
1630000000,-15.32487,142.89639
1635000000,-15.37576,140.57126
1640000000,-15.450015,138.11781
1645000000,-15.545835,135.76991
1650000000,-15.654411,133.37685
1655000000,-15.793941,131.11757
1660000000,-15.926104,128.96637
1665000000,-16.057791,126.74854
1670000000,-16.205624,124.4453
1675000000,-16.398876,122.00017
1680000000,-16.662037,119.68002
1685000000,-16.972721,117.6462
1690000000,-17.331524,115.95882
1695000000,-17.677042,114.6358
1700000000,-18.025229,113.17934
1705000000,-18.423281,111.63011
1710000000,-18.906919,109.96899
1715000000,-19.512363,108.59467
1720000000,-20.196686,107.97156
1725000000,-20.883713,107.98866
1730000000,-21.554655,108.26071
1735000000,-22.2365,108.65202
1740000000,-22.964825,109.02435
1745000000,-23.790888,109.64011
1750000000,-24.721891,111.00854
1755000000,-25.724537,113.30286
1760000000,-26.772745,117.32245
1765000000,-27.73374,122.89584
1770000000,-28.545429,130.34526
1775000000,-29.083271,139.23355
1780000000,-29.340628,149.19304
1785000000,-29.088257,160.05307
1790000000,-28.332273,169.34709
1795000000,-27.305969,176.27615
1800000000,-26.248079,-179.299
1805000000,-25.282017,-176.2943
1810000000,-24.384747,-173.99446
1815000000,-23.514374,-172.14272
1820000000,-22.672005,-170.74699
1825000000,-21.818577,-169.9425
1830000000,-21.006367,-170.05603
1835000000,-20.301502,-170.8649
1840000000,-19.707333,-172.02861
1845000000,-19.251402,-173.2084
1850000000,-18.863585,-174.01933
1855000000,-18.475079,-174.6028
1860000000,-18.052351,-175.3568
1865000000,-17.619423,-176.6678
1870000000,-17.235653,-178.67865
1875000000,-16.95911,178.83807
1880000000,-16.790916,176.32513
1885000000,-16.707272,174.062
1890000000,-16.636831,172.33401
1895000000,-16.526232,170.83696
1900000000,-16.360121,169.27966
1905000000,-16.146801,167.38812
1910000000,-15.942034,165.07417
1915000000,-15.770852,162.35208
1920000000,-15.675886,159.39972
1925000000,-15.661331,156.55318
1930000000,-15.717429,154.05464
1935000000,-15.819968,152.0627
1940000000,-15.910301,150.67548
1945000000,-15.949028,149.55055
1950000000,-15.947935,148.38187
1955000000,-15.919281,146.8539
1960000000,-15.936916,144.78305
1965000000,-16.055162,142.47269
1970000000,-16.263222,140.22101
1975000000,-16.558147,138.15634
1980000000,-16.908487,136.46506
1985000000,-17.281851,134.96696
1990000000,-17.697491,133.64967
1995000000,-18.127071,132.56911
2000000000,-18.572174,131.53592
END

