!CSV A.01.01
!Keysight Technologies,N5224B,MY61255146,A.15.50.09
!Date: Saturday, September 21, 2024 21:49:12
!Source: Standard

BEGIN CH1_DATA
Freq(Hz),S11(DB),S11(DEG)
600000000,-0.88388276,73.49543
605000000,-0.95609504,71.521118
610000000,-1.0355096,69.541916
615000000,-1.1147779,67.471046
620000000,-1.2061275,65.346573
625000000,-1.2982303,63.132286
630000000,-1.4024303,60.819469
635000000,-1.5178618,58.439236
640000000,-1.644315,55.968311
645000000,-1.7851697,53.459232
650000000,-1.9412349,50.935371
655000000,-2.099335,48.426437
660000000,-2.2615213,45.8563
665000000,-2.4400504,43.253429
670000000,-2.626972,40.660828
675000000,-2.8216374,38.034977
680000000,-3.0327175,35.411373
685000000,-3.2544227,32.751934
690000000,-3.5003231,30.050005
695000000,-3.7652769,27.360294
700000000,-4.057097,24.71129
705000000,-4.3654737,22.059879
710000000,-4.7084785,19.43277
715000000,-5.0797472,16.936951
720000000,-5.4735365,14.652918
725000000,-5.862895,12.511694
730000000,-6.2445021,10.41787
735000000,-6.631074,8.279521
740000000,-7.0331917,6.2017269
745000000,-7.4434276,4.3355122
750000000,-7.8260255,2.4750731
755000000,-8.2055807,0.71971852
760000000,-8.5583916,-1.066924
765000000,-8.9039631,-2.8612738
770000000,-9.2374773,-4.6511841
775000000,-9.5708399,-6.4121604
780000000,-9.9007826,-8.025156
785000000,-10.209682,-9.4581823
790000000,-10.464268,-10.800992
795000000,-10.679771,-12.365216
800000000,-10.892668,-14.021191
805000000,-11.096144,-15.914935
810000000,-11.312434,-17.811531
815000000,-11.519849,-20.083694
820000000,-11.765059,-22.406643
825000000,-12.029918,-24.8592
830000000,-12.31336,-27.427658
835000000,-12.64824,-30.211447
840000000,-13.000093,-32.780346
845000000,-13.353169,-35.171925
850000000,-13.6753,-37.713676
855000000,-13.990457,-40.421875
860000000,-14.282083,-43.630863
865000000,-14.653803,-46.958397
870000000,-15.076545,-50.006489
875000000,-15.4806,-52.897358
880000000,-15.925085,-55.363838
885000000,-16.375177,-57.116856
890000000,-16.747581,-58.128483
895000000,-16.935598,-58.728821
900000000,-17.005161,-59.864784
905000000,-17.067587,-61.321922
910000000,-17.105682,-63.218018
915000000,-17.174187,-65.252663
920000000,-17.25588,-67.50045
925000000,-17.42704,-69.834877
930000000,-17.634544,-71.758621
935000000,-17.762793,-73.604675
940000000,-17.958511,-75.736076
945000000,-18.214117,-77.934525
950000000,-18.500141,-79.853813
955000000,-18.761929,-81.116486
960000000,-18.950102,-82.356552
965000000,-19.091982,-83.739876
970000000,-19.140802,-84.857628
975000000,-19.08283,-86.746529
980000000,-19.052877,-89.609047
985000000,-19.123501,-92.693314
990000000,-19.280592,-95.07209
995000000,-19.426918,-97.022202
1000000000,-19.598478,-98.562935
1005000000,-19.75827,-99.182709
1010000000,-19.773952,-98.790512
1015000000,-19.658842,-98.501274
1020000000,-19.499514,-99.098015
1025000000,-19.403376,-99.529297
1030000000,-19.333363,-99.868469
1035000000,-19.215252,-100.39729
1040000000,-19.199368,-100.98023
1045000000,-19.224882,-101.45635
1050000000,-19.328686,-101.64405
1055000000,-19.495371,-101.48686
1060000000,-19.668638,-100.44604
1065000000,-19.785849,-98.907715
1070000000,-19.767056,-97.324913
1075000000,-19.65933,-96.569092
1080000000,-19.528843,-96.077003
1085000000,-19.344423,-95.928955
1090000000,-19.15197,-96.29525
1095000000,-19.021315,-97.624466
1100000000,-19.020844,-98.936188
1105000000,-19.100048,-99.548592
1110000000,-19.107138,-99.371643
1115000000,-19.02235,-99.054901
1120000000,-18.903572,-98.495728
1125000000,-18.730673,-97.618118
1130000000,-18.433128,-96.901718
1135000000,-18.150749,-96.89386
1140000000,-17.975746,-96.904068
1145000000,-17.824673,-96.278923
1150000000,-17.62466,-95.240517
1155000000,-17.342352,-94.382896
1160000000,-17.082083,-93.820557
1165000000,-16.843805,-93.376472
1170000000,-16.662674,-92.961525
1175000000,-16.501659,-91.97422
1180000000,-16.312725,-90.833923
1185000000,-16.078972,-89.337563
1190000000,-15.75594,-87.904068
1195000000,-15.352034,-87.030571
1200000000,-14.962025,-86.871941
1205000000,-14.627936,-86.913406
1210000000,-14.289886,-87.04908
1215000000,-13.934259,-87.465187
1220000000,-13.605447,-88.307999
1225000000,-13.318567,-89.346977
1230000000,-13.063535,-90.545547
1235000000,-12.854456,-91.766693
1240000000,-12.664699,-92.847466
1245000000,-12.462817,-93.749031
1250000000,-12.244192,-94.621689
1255000000,-12.011324,-95.543564
1260000000,-11.775931,-96.48774
1265000000,-11.553253,-97.4702
1270000000,-11.333014,-98.31749
1275000000,-11.090376,-99.249107
1280000000,-10.84559,-100.32571
1285000000,-10.623422,-101.59827
1290000000,-10.455505,-102.90079
1295000000,-10.328016,-103.92668
1300000000,-10.198815,-104.70157
1305000000,-10.052476,-105.28193
1310000000,-9.8743162,-105.96948
1315000000,-9.6880445,-106.80003
1320000000,-9.5175228,-107.76469
1325000000,-9.3563585,-108.87733
1330000000,-9.223546,-110.06159
1335000000,-9.1140985,-111.24427
1340000000,-9.017312,-112.33336
1345000000,-8.9256697,-113.36391
1350000000,-8.8214273,-114.30648
1355000000,-8.7048035,-115.25803
1360000000,-8.5815487,-116.35208
1365000000,-8.4750195,-117.54992
1370000000,-8.3805571,-118.79318
1375000000,-8.3029051,-119.99648
1380000000,-8.2222252,-121.15275
1385000000,-8.1324148,-122.34404
1390000000,-8.0449514,-123.60768
1395000000,-7.9718447,-124.87958
1400000000,-7.9060893,-126.12637
1405000000,-7.846302,-127.34489
1410000000,-7.7863483,-128.51913
1415000000,-7.7315035,-129.70364
1420000000,-7.6857243,-130.86987
1425000000,-7.6400523,-132.01369
1430000000,-7.6025834,-133.11394
1435000000,-7.5641017,-134.16629
1440000000,-7.5199132,-135.23837
1445000000,-7.4819517,-136.38437
1450000000,-7.4606004,-137.53294
1455000000,-7.457036,-138.67082
1460000000,-7.4648414,-139.70441
1465000000,-7.4701395,-140.69427
1470000000,-7.4736619,-141.65446
1475000000,-7.4795074,-142.63016
1480000000,-7.4875989,-143.61815
1485000000,-7.5035739,-144.61679
1490000000,-7.5260811,-145.63559
1495000000,-7.5618329,-146.63095
1500000000,-7.5970049,-147.56804
1505000000,-7.6271448,-148.49512
1510000000,-7.6555004,-149.44563
1515000000,-7.6821542,-150.44626
1520000000,-7.7202706,-151.46628
1525000000,-7.7630091,-152.4032
1530000000,-7.7960348,-153.30977
1535000000,-7.8291531,-154.23692
1540000000,-7.8593473,-155.22626
1545000000,-7.9047441,-156.2663
1550000000,-7.9684362,-157.23427
1555000000,-8.0390329,-158.13655
1560000000,-8.1146536,-158.93188
1565000000,-8.1774206,-159.65408
1570000000,-8.2288094,-160.4207
1575000000,-8.2839098,-161.27769
1580000000,-8.3498507,-162.25264
1585000000,-8.4436455,-163.27837
1590000000,-8.5620098,-164.19051
1595000000,-8.6933289,-165.01418
1600000000,-8.8263664,-165.7572
1605000000,-8.948925,-166.49457
1610000000,-9.0771046,-167.3073
1615000000,-9.2202673,-168.15958
1620000000,-9.3872719,-168.95216
1625000000,-9.5628815,-169.58801
1630000000,-9.7314062,-170.07692
1635000000,-9.8729887,-170.57967
1640000000,-10.006923,-171.24176
1645000000,-10.157513,-172.05417
1650000000,-10.34194,-172.91791
1655000000,-10.557544,-173.59486
1660000000,-10.784162,-174.10498
1665000000,-11.003609,-174.45177
1670000000,-11.21194,-174.72974
1675000000,-11.42247,-175.06277
1680000000,-11.652382,-175.36984
1685000000,-11.910948,-175.56157
1690000000,-12.175822,-175.55469
1695000000,-12.433661,-175.42386
1700000000,-12.694855,-175.30476
1705000000,-12.990874,-175.15192
1710000000,-13.312801,-174.9091
1715000000,-13.682139,-174.44507
1720000000,-14.077303,-173.57846
1725000000,-14.473722,-172.24678
1730000000,-14.844051,-170.58488
1735000000,-15.181653,-168.72025
1740000000,-15.511548,-166.71921
1745000000,-15.832553,-164.50554
1750000000,-16.131115,-161.94711
1755000000,-16.39814,-159.21587
1760000000,-16.633459,-156.1411
1765000000,-16.825012,-152.80881
1770000000,-16.961048,-149.01747
1775000000,-16.996368,-144.99434
1780000000,-16.926676,-140.78459
1785000000,-16.730938,-136.62717
1790000000,-16.408142,-132.84528
1795000000,-16.012398,-129.65622
1800000000,-15.571052,-126.90305
1805000000,-15.093849,-124.60358
1810000000,-14.576687,-122.74051
1815000000,-14.062276,-121.45876
1820000000,-13.567583,-120.4502
1825000000,-13.06523,-119.69597
1830000000,-12.568982,-119.31838
1835000000,-12.084746,-119.23341
1840000000,-11.629958,-119.52397
1845000000,-11.213383,-120.0648
1850000000,-10.846631,-120.77051
1855000000,-10.519103,-121.55196
1860000000,-10.213693,-122.33553
1865000000,-9.9128971,-123.21765
1870000000,-9.6254406,-124.35079
1875000000,-9.370635,-125.75145
1880000000,-9.1701765,-127.33469
1885000000,-9.0274324,-128.89885
1890000000,-8.9170933,-130.34079
1895000000,-8.8299198,-131.54803
1900000000,-8.7240429,-132.61415
1905000000,-8.6028233,-133.72379
1910000000,-8.4667101,-134.94402
1915000000,-8.3389015,-136.40303
1920000000,-8.2411146,-137.96188
1925000000,-8.1728315,-139.54079
1930000000,-8.1324329,-141.00499
1935000000,-8.0983686,-142.32971
1940000000,-8.066081,-143.5343
1945000000,-8.0319462,-144.69087
1950000000,-8.0046711,-145.86644
1955000000,-7.9916964,-147.02098
1960000000,-7.9985719,-148.07372
1965000000,-8.0104408,-148.99544
1970000000,-8.0183764,-149.81808
1975000000,-8.0282488,-150.65585
1980000000,-8.0456829,-151.54099
1985000000,-8.0920458,-152.41513
1990000000,-8.1552954,-153.15465
1995000000,-8.2227535,-153.72807
2000000000,-8.2759447,-154.2171
2005000000,-8.3105803,-154.69872
2010000000,-8.3346777,-155.2789
2015000000,-8.3557034,-155.98357
2020000000,-8.3891926,-156.74821
2025000000,-8.4368649,-157.55212
2030000000,-8.4877119,-158.27924
2035000000,-8.5322399,-158.98613
2040000000,-8.5721693,-159.66885
2045000000,-8.6003885,-160.34464
2050000000,-8.621666,-160.99376
2055000000,-8.6292448,-161.65977
2060000000,-8.6299171,-162.35909
2065000000,-8.6291513,-163.09578
2070000000,-8.6284504,-163.86194
2075000000,-8.6379242,-164.69005
2080000000,-8.6617441,-165.45204
2085000000,-8.6909161,-166.14333
2090000000,-8.7199888,-166.79205
2095000000,-8.7550955,-167.41087
2100000000,-8.7918987,-168.01071
2105000000,-8.8388109,-168.60376
2110000000,-8.8851366,-169.21336
2115000000,-8.9434423,-169.86534
2120000000,-9.0087414,-170.55525
2125000000,-9.0883751,-171.27518
2130000000,-9.1780138,-171.98004
2135000000,-9.2716618,-172.66139
2140000000,-9.3628473,-173.36095
2145000000,-9.4489412,-174.08711
2150000000,-9.5346022,-174.90245
2155000000,-9.6254883,-175.78317
2160000000,-9.727952,-176.70497
2165000000,-9.8401127,-177.58437
2170000000,-9.9500895,-178.36086
2175000000,-10.039664,-179.10791
2180000000,-10.123096,-179.93188
2185000000,-10.206172,179.19366
2190000000,-10.302531,178.27452
2195000000,-10.419421,177.4269
2200000000,-10.544248,176.66249
2205000000,-10.678112,176.02003
2210000000,-10.822349,175.52782
2215000000,-10.968763,175.11421
2220000000,-11.11159,174.74219
2225000000,-11.254333,174.3922
2230000000,-11.40648,174.00233
2235000000,-11.57036,173.62788
2240000000,-11.748948,173.23309
2245000000,-11.953392,172.86363
2250000000,-12.172132,172.52846
2255000000,-12.402079,172.27794
2260000000,-12.627917,172.09151
2265000000,-12.850616,171.84978
2270000000,-13.077979,171.53703
2275000000,-13.332262,171.14183
2280000000,-13.606233,170.86006
2285000000,-13.882999,170.69411
2290000000,-14.151533,170.58589
2295000000,-14.417452,170.52919
2300000000,-14.686187,170.48035
2305000000,-14.969896,170.52823
2310000000,-15.254569,170.74301
2315000000,-15.536932,171.17181
2320000000,-15.823096,171.78502
2325000000,-16.103991,172.62355
2330000000,-16.375816,173.67192
2335000000,-16.653641,174.98622
2340000000,-16.920305,176.62613
2345000000,-17.174911,178.57364
2350000000,-17.385056,-179.21169
2355000000,-17.571915,-176.89989
2360000000,-17.738722,-174.46916
2365000000,-17.893393,-171.97984
2370000000,-18.03824,-169.32697
2375000000,-18.173973,-166.58672
2380000000,-18.278856,-163.59296
2385000000,-18.336767,-160.56001
2390000000,-18.355249,-157.59497
2395000000,-18.359341,-154.63631
2400000000,-18.317497,-151.65463
2405000000,-18.208134,-148.73615
2410000000,-18.042307,-146.04869
2415000000,-17.817978,-143.77518
2420000000,-17.586952,-141.98441
2425000000,-17.356779,-140.41801
2430000000,-17.129484,-138.97087
2435000000,-16.865377,-137.53894
2440000000,-16.564304,-136.38684
2445000000,-16.227688,-135.40587
2450000000,-15.874891,-134.9704
2455000000,-15.556478,-134.7664
2460000000,-15.25198,-134.70927
2465000000,-14.965673,-134.59619
2470000000,-14.681448,-134.49142
2475000000,-14.375133,-134.34105
2480000000,-14.048777,-134.41852
2485000000,-13.725849,-134.73714
2490000000,-13.438253,-135.31566
2495000000,-13.188901,-136.0089
2500000000,-12.984118,-136.6501
2505000000,-12.802376,-137.13742
2510000000,-12.609858,-137.53246
2515000000,-12.410086,-137.99568
2520000000,-12.220287,-138.59198
2525000000,-12.033952,-139.36421
2530000000,-11.883096,-140.29707
2535000000,-11.75841,-141.1868
2540000000,-11.641786,-142.07922
2545000000,-11.525662,-142.98961
2550000000,-11.408286,-143.91687
2555000000,-11.287161,-144.94957
2560000000,-11.176614,-146.09026
2565000000,-11.069495,-147.29742
2570000000,-10.972036,-148.53549
2575000000,-10.882294,-149.81129
2580000000,-10.796305,-151.06451
2585000000,-10.698179,-152.40593
2590000000,-10.623491,-153.84908
2595000000,-10.564548,-155.30359
2600000000,-10.523315,-156.71877
2605000000,-10.497563,-158.08652
2610000000,-10.477723,-159.33604
2615000000,-10.457304,-160.55672
2620000000,-10.434331,-161.77573
2625000000,-10.419837,-163.02536
2630000000,-10.420407,-164.31557
2635000000,-10.434866,-165.6461
2640000000,-10.470907,-166.91571
2645000000,-10.49903,-168.15094
2650000000,-10.538255,-169.42038
2655000000,-10.577247,-170.76704
2660000000,-10.631629,-172.1405
2665000000,-10.705494,-173.56047
2670000000,-10.792472,-174.96043
2675000000,-10.893529,-176.2863
2680000000,-10.991532,-177.5605
2685000000,-11.085394,-178.85454
2690000000,-11.174712,179.76657
2695000000,-11.281396,178.3299
2700000000,-11.403987,176.83966
2705000000,-11.54551,175.43819
2710000000,-11.696296,174.12552
2715000000,-11.847606,172.88489
2720000000,-11.99982,171.67216
2725000000,-12.156707,170.38905
2730000000,-12.334247,169.07393
2735000000,-12.544578,167.79144
2740000000,-12.775474,166.67339
2745000000,-13.018981,165.79538
2750000000,-13.246677,165.02974
2755000000,-13.458547,164.38141
2760000000,-13.65941,163.5843
2765000000,-13.868464,162.6772
2770000000,-14.103766,161.69777
2775000000,-14.355091,160.74149
2780000000,-14.641036,159.79079
2785000000,-14.935298,158.97717
2790000000,-15.247808,158.24463
2795000000,-15.542432,157.67729
2800000000,-15.823053,156.96823
2805000000,-16.126768,156.11034
2810000000,-16.459629,155.18811
2815000000,-16.840805,154.34329
2820000000,-17.254957,153.70114
2825000000,-17.677776,153.41786
2830000000,-18.087824,153.23111
2835000000,-18.482388,153.26274
2840000000,-18.854437,153.13113
2845000000,-19.254889,152.70668
2850000000,-19.72069,152.17844
2855000000,-20.286516,151.80977
2860000000,-20.946741,152.02878
2865000000,-21.625452,153.22231
2870000000,-22.245474,155.21281
2875000000,-22.774071,157.45728
2880000000,-23.246716,159.39561
2885000000,-23.771915,160.97812
2890000000,-24.39481,162.73302
2895000000,-25.112587,164.95581
2900000000,-25.895819,168.12241
2905000000,-26.662582,172.40314
2910000000,-27.362526,177.60394
2915000000,-27.989027,-176.20012
2920000000,-28.476833,-169.14784
2925000000,-28.779358,-161.23486
2930000000,-28.772703,-153.22159
2935000000,-28.590015,-145.94281
2940000000,-28.247993,-139.50841
2945000000,-27.857496,-133.6842
2950000000,-27.371376,-128.4462
2955000000,-26.812452,-124.1447
2960000000,-26.219538,-120.72937
2965000000,-25.665388,-118.10902
2970000000,-25.168768,-115.72263
2975000000,-24.657642,-113.34653
2980000000,-24.078379,-110.91234
2985000000,-23.446728,-109.05547
2990000000,-22.790142,-107.96655
2995000000,-22.199673,-107.70825
3000000000,-21.698845,-107.8131
3005000000,-21.304205,-107.85979
3010000000,-20.944607,-107.59135
3015000000,-20.583338,-107.247
3020000000,-20.194977,-106.91087
3025000000,-19.814306,-106.82045
3030000000,-19.459686,-107.0069
3035000000,-19.156282,-107.32291
3040000000,-18.892363,-107.5539
3045000000,-18.639782,-107.67964
3050000000,-18.373156,-107.83583
3055000000,-18.101971,-108.20811
3060000000,-17.839436,-108.7426
3065000000,-17.606058,-109.57328
3070000000,-17.419739,-110.49058
3075000000,-17.267639,-111.43282
3080000000,-17.141407,-112.21206
3085000000,-17.021275,-112.90487
3090000000,-16.884901,-113.51719
3095000000,-16.733625,-114.20157
3100000000,-16.57501,-115.05122
3105000000,-16.433546,-116.01025
3110000000,-16.304092,-116.99667
3115000000,-16.175604,-118.0061
3120000000,-16.053196,-119.0239
3125000000,-15.932005,-120.06253
3130000000,-15.818689,-121.19489
3135000000,-15.728489,-122.34956
3140000000,-15.660439,-123.42397
3145000000,-15.610885,-124.37115
3150000000,-15.55974,-125.1674
3155000000,-15.507484,-125.92052
3160000000,-15.447428,-126.73511
3165000000,-15.398407,-127.63263
3170000000,-15.362634,-128.64322
3175000000,-15.358161,-129.73514
3180000000,-15.39032,-130.78978
3185000000,-15.437645,-131.72823
3190000000,-15.492898,-132.61731
3195000000,-15.552721,-133.49638
3200000000,-15.624305,-134.47925
3205000000,-15.7033,-135.38463
3210000000,-15.787234,-136.28131
3215000000,-15.881041,-137.20628
3220000000,-15.973663,-138.1123
3225000000,-16.061686,-138.93896
3230000000,-16.147165,-139.89551
3235000000,-16.238674,-140.89842
3240000000,-16.34457,-142.06837
3245000000,-16.476961,-143.20244
3250000000,-16.622494,-144.19664
3255000000,-16.768984,-145.0311
3260000000,-16.9093,-145.75424
3265000000,-17.041525,-146.50902
3270000000,-17.178593,-147.23381
3275000000,-17.332302,-148.13388
3280000000,-17.533819,-148.8537
3285000000,-17.766504,-149.33408
3290000000,-17.990589,-149.55267
3295000000,-18.201479,-149.72966
3300000000,-18.401169,-150.07388
3305000000,-18.643284,-150.60548
3310000000,-18.943251,-151.22011
3315000000,-19.290977,-151.64708
3320000000,-19.679808,-151.8141
3325000000,-20.058352,-151.7523
3330000000,-20.438478,-151.71321
3335000000,-20.833576,-151.72934
3340000000,-21.273325,-151.85806
3345000000,-21.759907,-151.85881
3350000000,-22.268682,-151.47635
3355000000,-22.753143,-150.85704
3360000000,-23.208387,-150.09073
3365000000,-23.622532,-149.46834
3370000000,-24.05324,-149.15067
3375000000,-24.566011,-148.88223
3380000000,-25.182571,-148.18903
3385000000,-25.871126,-146.35202
3390000000,-26.545732,-143.229
3395000000,-27.094072,-139.04219
3400000000,-27.50972,-134.42567
3405000000,-27.846367,-129.68529
3410000000,-28.196318,-124.51898
3415000000,-28.508226,-118.1596
3420000000,-28.633659,-110.69245
3425000000,-28.469318,-102.99034
3430000000,-28.117748,-96.399361
3435000000,-27.759586,-90.565506
3440000000,-27.408182,-85.09111
3445000000,-27.025379,-79.391098
3450000000,-26.534184,-73.60585
3455000000,-25.875374,-68.515617
3460000000,-25.157593,-64.813179
3465000000,-24.479765,-62.402042
3470000000,-23.91361,-60.835049
3475000000,-23.437925,-59.465233
3480000000,-22.987732,-58.201908
3485000000,-22.542521,-57.101799
3490000000,-22.108046,-56.581223
3495000000,-21.728264,-56.346432
3500000000,-21.387087,-56.193848
3505000000,-21.050028,-56.011269
3510000000,-20.708433,-55.832695
3515000000,-20.339994,-55.723469
3520000000,-19.952839,-55.831905
3525000000,-19.57226,-56.246834
3530000000,-19.217144,-56.78072
3535000000,-18.889013,-57.263042
3540000000,-18.557459,-57.683655
3545000000,-18.22661,-58.098778
3550000000,-17.896204,-58.612267
3555000000,-17.585287,-59.193577
3560000000,-17.307055,-59.814835
3565000000,-17.062508,-60.310551
3570000000,-16.836189,-60.587776
3575000000,-16.606585,-60.720791
3580000000,-16.375998,-60.812889
3585000000,-16.135714,-61.033485
3590000000,-15.907469,-61.417957
3595000000,-15.706246,-61.93367
3600000000,-15.532474,-62.550743
3605000000,-15.397776,-63.151253
3610000000,-15.273904,-63.681679
3615000000,-15.152721,-64.19265
3620000000,-15.025215,-64.765862
3625000000,-14.902574,-65.456711
3630000000,-14.789658,-66.209404
3635000000,-14.692273,-66.995506
3640000000,-14.597877,-67.757065
3645000000,-14.502058,-68.514084
